T2D88 000:010.384   SEGGER J-Link V8.34 Log File
T2D88 000:010.539   DLL Compiled: May 14 2025 16:53:06
T2D88 000:010.569   Logging started @ 2025-09-29 05:59
T2D88 000:010.598   Process: D:\keil\UV4\UV4.exe
T2D88 000:010.635 - 10.627ms 
T2D88 000:010.668 JLINK_SetWarnOutHandler(...)
T2D88 000:010.696 - 0.029ms 
T2D88 000:010.725 JLINK_OpenEx(...)
T2D88 000:015.017   Firmware: J-Link Pro V4 compiled Sep 22 2029 15:00:37
T2D88 000:016.983   Firmware: J-Link Pro V4 compiled Sep 22 2029 15:00:37
T2D88 000:017.207   Decompressing FW timestamp took 119 us
T2D88 000:020.808   Hardware: V12.00
T2D88 000:020.876   S/N: 601012546
T2D88 000:020.916   OEM: SEGGER
T2D88 000:020.954   Feature(s): RDI, FlashBP, FlashDL, JFlash, GDB
T2D88 000:021.982   Bootloader: (FW returned invalid version)
T2D88 000:023.043   USB speed mode: High speed (480 MBit/s)
T2D88 000:023.152   Active J-Link Eco level: 3 (https://wiki.segger.com/J-Link_Eco)
T2D88 000:023.712   TELNET listener socket opened on port 19021
T2D88 000:023.958   WEBSRV WEBSRV_Init(): Starting webserver thread(s)
T2D88 000:024.317   WEBSRV Webserver running on local port 19080
T2D88 000:024.636   Looking for J-Link GUI Server exe at: D:\keil\ARM\Segger\JLinkGUIServer.exe
T2D88 000:025.124   Looking for J-Link GUI Server exe at: C:\Program Files\SEGGER\JLink_V834\JLinkGUIServer.exe
T2D88 000:025.406   Forking J-Link GUI Server: C:\Program Files\SEGGER\JLink_V834\JLinkGUIServer.exe
T2D88 000:033.826   J-Link GUI Server info: "J-Link GUI server V8.34 "
T2D88 000:034.471 - 23.734ms returns "O.K."
T2D88 000:034.550 JLINK_GetEmuCaps()
T2D88 000:034.589 - 0.036ms returns 0xB9FF7BBF
T2D88 000:034.626 JLINK_TIF_GetAvailable(...)
T2D88 000:034.998 - 0.371ms 
T2D88 000:035.073 JLINK_SetErrorOutHandler(...)
T2D88 000:035.110 - 0.036ms 
T2D88 000:035.175 JLINK_ExecCommand("ProjectFile = "C:\Users\lenon-2\Desktop\程序\分类箱体最终版\bootloader 分类箱体最终版\自动换桶展厅\自动换桶\Project\JLinkSettings.ini"", ...). 
T2D88 000:052.892   Ref file found at: D:\keil\ARM\Segger\JLinkDevices.ref
T2D88 000:053.191   REF file references invalid XML file: C:\Program Files\SEGGER\JLink_V834\JLinkDevices.xml
T2D88 000:054.713 - 19.539ms returns 0x00
T2D88 000:054.817 JLINK_ExecCommand("Device = GD32F303RG", ...). 
T2D88 000:056.891   Flash bank @ 0x1FFFF800: SFL: Parsing sectorization info from ELF file
T2D88 000:056.988     FlashDevice.SectorInfo[0]: .SectorSize = 0x00000010, .SectorStartAddr = 0x00000000
T2D88 000:057.158   Device "GD32F303RGT6" selected.
T2D88 000:058.290 - 3.413ms returns 0x00
T2D88 000:058.323 JLINK_ExecCommand("DisableConnectionTimeout", ...). 
T2D88 000:058.358   ERROR: Unknown command
T2D88 000:058.399 - 0.048ms returns 0x01
T2D88 000:058.428 JLINK_GetHardwareVersion()
T2D88 000:058.460 - 0.030ms returns 120000
T2D88 000:058.488 JLINK_GetDLLVersion()
T2D88 000:058.514 - 0.026ms returns 83400
T2D88 000:058.542 JLINK_GetOEMString(...)
T2D88 000:058.571 JLINK_GetFirmwareString(...)
T2D88 000:058.598 - 0.027ms 
T2D88 000:058.641 JLINK_GetDLLVersion()
T2D88 000:058.668 - 0.026ms returns 83400
T2D88 000:058.696 JLINK_GetCompileDateTime()
T2D88 000:058.723 - 0.027ms 
T2D88 000:058.755 JLINK_GetFirmwareString(...)
T2D88 000:058.782 - 0.027ms 
T2D88 000:058.813 JLINK_GetHardwareVersion()
T2D88 000:058.840 - 0.027ms returns 120000
T2D88 000:058.870 JLINK_GetSN()
T2D88 000:058.898 - 0.027ms returns 601012546
T2D88 000:058.927 JLINK_GetOEMString(...)
T2D88 000:058.962 JLINK_TIF_Select(JLINKARM_TIF_SWD)
T2D88 000:060.015 - 1.053ms returns 0x00
T2D88 000:060.070 JLINK_HasError()
T2D88 000:060.114 JLINK_SetSpeed(5000)
T2D88 000:060.262 - 0.149ms 
T2D88 000:060.296 JLINK_GetId()
T2D88 000:060.624   InitTarget() start
T2D88 000:060.669    J-Link Script File: Executing InitTarget()
T2D88 000:060.713   SWD selected. Executing JTAG -> SWD switching sequence.
T2D88 000:064.051     No Protection is set.
T2D88 000:064.106   InitTarget() end - Took 3.43ms
T2D88 000:064.906   Found SW-DP with ID 0x2BA01477
T2D88 000:067.632   DPIDR: 0x2BA01477
T2D88 000:067.711   CoreSight SoC-400 or earlier
T2D88 000:067.807   Scanning AP map to find all available APs
T2D88 000:068.302   AP[1]: Stopped AP scan as end of AP map has been reached
T2D88 000:068.348   AP[0]: AHB-AP (IDR: 0x24770011, ADDR: 0x00000000)
T2D88 000:068.392   Iterating through AP map to find AHB-AP to use
T2D88 000:069.002   AP[0]: Core found
T2D88 000:069.070   AP[0]: AHB-AP ROM base: 0xE00FF000
T2D88 000:069.422   CPUID register: 0x410FC241. Implementer code: 0x41 (ARM)
T2D88 000:069.492   Found Cortex-M4 r0p1, Little endian.
T2D88 000:069.925   -- Max. mem block: 0x00003BA8
T2D88 000:070.607   CPU_ReadMem(4 bytes @ 0xE000EDF0)
T2D88 000:071.194   CPU_WriteMem(4 bytes @ 0xE000EDF0)
T2D88 000:071.767   CPU_ReadMem(4 bytes @ 0xE0002000)
T2D88 000:072.153   FPUnit: 6 code (BP) slots and 2 literal slots
T2D88 000:072.231   CPU_ReadMem(4 bytes @ 0xE000EDFC)
T2D88 000:072.637   CPU_WriteMem(4 bytes @ 0xE000EDFC)
T2D88 000:073.094   CPU_ReadMem(4 bytes @ 0xE0001000)
T2D88 000:073.526   CPU_WriteMem(4 bytes @ 0xE0001000)
T2D88 000:074.138   CPU_ReadMem(4 bytes @ 0xE000ED88)
T2D88 000:074.608   CPU_WriteMem(4 bytes @ 0xE000ED88)
T2D88 000:075.135   CPU_ReadMem(4 bytes @ 0xE000ED88)
T2D88 000:075.569   CPU_WriteMem(4 bytes @ 0xE000ED88)
T2D88 000:076.035   CoreSight components:
T2D88 000:076.105   ROMTbl[0] @ E00FF000
T2D88 000:076.171   CPU_ReadMem(64 bytes @ 0xE00FF000)
T2D88 000:076.806   CPU_ReadMem(32 bytes @ 0xE000EFE0)
T2D88 000:077.367   [0][0]: E000E000 CID B105E00D PID 000BB00C SCS-M7
T2D88 000:077.438   CPU_ReadMem(32 bytes @ 0xE0001FE0)
T2D88 000:078.072   [0][1]: E0001000 CID B105E00D PID 003BB002 DWT
T2D88 000:078.183   CPU_ReadMem(32 bytes @ 0xE0002FE0)
T2D88 000:078.747   [0][2]: E0002000 CID B105E00D PID 002BB003 FPB
T2D88 000:078.865   CPU_ReadMem(32 bytes @ 0xE0000FE0)
T2D88 000:079.517   [0][3]: E0000000 CID B105E00D PID 003BB001 ITM
T2D88 000:079.729   CPU_ReadMem(32 bytes @ 0xE0040FE0)
T2D88 000:080.379   [0][4]: E0040000 CID B105900D PID 000BB9A1 TPIU
T2D88 000:080.496   CPU_ReadMem(32 bytes @ 0xE0041FE0)
T2D88 000:081.104   [0][5]: E0041000 CID 00000000 PID 00000000 ???
T2D88 000:081.567 - 21.270ms returns 0x2BA01477
T2D88 000:081.674 JLINK_GetDLLVersion()
T2D88 000:081.725 - 0.049ms returns 83400
T2D88 000:081.777 JLINK_CORE_GetFound()
T2D88 000:081.824 - 0.047ms returns 0xE0000FF
T2D88 000:081.877 JLINK_GetDebugInfo(0x100 = JLINKARM_ROM_TABLE_ADDR_INDEX)
T2D88 000:081.926   Value=0xE00FF000
T2D88 000:081.997 - 0.121ms returns 0
T2D88 000:082.086 JLINK_GetDebugInfo(0x100 = JLINKARM_ROM_TABLE_ADDR_INDEX)
T2D88 000:082.135   Value=0xE00FF000
T2D88 000:082.205 - 0.119ms returns 0
T2D88 000:082.255 JLINK_GetDebugInfo(0x101 = JLINKARM_DEBUG_INFO_ETM_ADDR_INDEX)
T2D88 000:082.302   Value=0x00000000
T2D88 000:082.373 - 0.119ms returns 0
T2D88 000:082.424 JLINK_ReadMemEx(0xE0041FF0, 0x10 Bytes, Flags = 0x02000004)
T2D88 000:082.512   CPU_ReadMem(16 bytes @ 0xE0041FF0)
T2D88 000:083.173   Data:  00 00 00 00 00 00 00 00 00 00 00 00 00 00 00 00
T2D88 000:083.293 - 0.869ms returns 16 (0x10)
T2D88 000:083.350 JLINK_GetDebugInfo(0x102 = JLINKARM_DEBUG_INFO_MTB_ADDR_INDEX)
T2D88 000:083.414   Value=0x00000000
T2D88 000:083.525 - 0.174ms returns 0
T2D88 000:083.597 JLINK_GetDebugInfo(0x103 = JLINKARM_DEBUG_INFO_TPIU_ADDR_INDEX)
T2D88 000:083.667   Value=0xE0040000
T2D88 000:083.774 - 0.177ms returns 0
T2D88 000:083.851 JLINK_GetDebugInfo(0x104 = JLINKARM_DEBUG_INFO_ITM_ADDR_INDEX)
T2D88 000:083.924   Value=0xE0000000
T2D88 000:084.042 - 0.191ms returns 0
T2D88 000:084.116 JLINK_GetDebugInfo(0x105 = JLINKARM_DEBUG_INFO_DWT_ADDR_INDEX)
T2D88 000:084.189   Value=0xE0001000
T2D88 000:084.298 - 0.182ms returns 0
T2D88 000:084.371 JLINK_GetDebugInfo(0x106 = JLINKARM_DEBUG_INFO_FPB_ADDR_INDEX)
T2D88 000:084.442   Value=0xE0002000
T2D88 000:084.524 - 0.154ms returns 0
T2D88 000:084.574 JLINK_GetDebugInfo(0x107 = JLINKARM_DEBUG_INFO_NVIC_ADDR_INDEX)
T2D88 000:084.620   Value=0xE000E000
T2D88 000:084.692 - 0.119ms returns 0
T2D88 000:084.743 JLINK_GetDebugInfo(0x10C = JLINKARM_DEBUG_INFO_DBG_ADDR_INDEX)
T2D88 000:084.798   Value=0xE000EDF0
T2D88 000:084.875 - 0.132ms returns 0
T2D88 000:084.927 JLINK_GetDebugInfo(0x01 = Unknown)
T2D88 000:084.974   Value=0x00000001
T2D88 000:085.048 - 0.121ms returns 0
T2D88 000:085.102 JLINK_ReadMemU32(0xE000ED00, 0x1 Items)
T2D88 000:085.159   CPU_ReadMem(4 bytes @ 0xE000ED00)
T2D88 000:085.719   Data:  41 C2 0F 41
T2D88 000:085.850   Debug reg: CPUID
T2D88 000:085.928 - 0.825ms returns 1 (0x1)
T2D88 000:085.989 JLINK_GetDebugInfo(0x10F = JLINKARM_DEBUG_INFO_HAS_CORTEX_M_SECURITY_EXT_INDEX)
T2D88 000:086.043   Value=0x00000000
T2D88 000:086.120 - 0.132ms returns 0
T2D88 000:086.174 JLINK_HasError()
T2D88 000:086.229 JLINK_SetResetType(JLINKARM_CM3_RESET_TYPE_NORMAL)
T2D88 000:086.282 - 0.053ms returns JLINKARM_CM3_RESET_TYPE_NORMAL
T2D88 000:086.336 JLINK_Reset()
T2D88 000:086.405   JLINK_GetResetTypeDesc
T2D88 000:086.455   - 0.050ms 
T2D88 000:086.535   Reset type: NORMAL (https://wiki.segger.com/J-Link_Reset_Strategies)
T2D88 000:086.594   CPU is running
T2D88 000:086.671   CPU_WriteMem(4 bytes @ 0xE000EDF0)
T2D88 000:087.311   CPU is running
T2D88 000:087.434   CPU_WriteMem(4 bytes @ 0xE000EDFC)
T2D88 000:088.087   Reset: Halt core after reset via DEMCR.VC_CORERESET.
T2D88 000:089.132   Reset: Reset device via AIRCR.SYSRESETREQ.
T2D88 000:089.254   CPU is running
T2D88 000:089.332   CPU_WriteMem(4 bytes @ 0xE000ED0C)
T2D88 000:145.686   CPU_ReadMem(4 bytes @ 0xE000EDF0)
T2D88 000:146.386   CPU_ReadMem(4 bytes @ 0xE000EDF0)
T2D88 000:149.820   CPU_WriteMem(4 bytes @ 0xE000EDFC)
T2D88 000:156.216   CPU_ReadMem(4 bytes @ 0xE000EDF0)
T2D88 000:159.940   CPU_WriteMem(4 bytes @ 0xE0002000)
T2D88 000:160.911   CPU_ReadMem(4 bytes @ 0xE000EDFC)
T2D88 000:161.681   CPU_ReadMem(4 bytes @ 0xE0001000)
T2D88 000:162.468 - 76.125ms 
T2D88 000:162.651 JLINK_HasError()
T2D88 000:162.798 JLINK_ReadReg(R15 (PC))
T2D88 000:162.875 - 0.076ms returns 0x08000144
T2D88 000:162.944 JLINK_ReadReg(XPSR)
T2D88 000:163.015 - 0.070ms returns 0x01000000
T2D88 000:163.086 JLINK_Halt()
T2D88 000:163.155 - 0.069ms returns 0x00
T2D88 000:163.226 JLINK_ReadMemU32(0xE000EDF0, 0x1 Items)
T2D88 000:163.304   CPU_ReadMem(4 bytes @ 0xE000EDF0)
T2D88 000:164.047   Data:  03 00 03 00
T2D88 000:164.225   Debug reg: DHCSR
T2D88 000:164.330 - 1.104ms returns 1 (0x1)
T2D88 000:164.437 JLINK_WriteU32(0xE000EDF0, 0xA05F0003)
T2D88 000:164.507   Debug reg: DHCSR
T2D88 000:165.156   CPU_WriteMem(4 bytes @ 0xE000EDF0)
T2D88 000:165.951 - 1.509ms returns 0 (0x00000000)
T2D88 000:166.085 JLINK_WriteU32(0xE000EDFC, 0x01000000)
T2D88 000:166.153   Debug reg: DEMCR
T2D88 000:166.267   CPU_WriteMem(4 bytes @ 0xE000EDFC)
T2D88 000:166.991 - 0.904ms returns 0 (0x00000000)
T2D88 000:167.190 JLINK_GetHWStatus(...)
T2D88 000:167.614 - 0.432ms returns 0
T2D88 000:167.916 JLINK_GetNumBPUnits(Type = 0xFFFFFF00)
T2D88 000:167.998 - 0.082ms returns 0x06
T2D88 000:168.070 JLINK_GetNumBPUnits(Type = 0xF0)
T2D88 000:168.142 - 0.072ms returns 0x2000
T2D88 000:168.215 JLINK_GetNumWPUnits()
T2D88 000:168.287 - 0.071ms returns 4
T2D88 000:168.375 JLINK_GetSpeed()
T2D88 000:168.445 - 0.070ms returns 5000
T2D88 000:168.528 JLINK_ReadMemU32(0xE000E004, 0x1 Items)
T2D88 000:168.609   CPU_ReadMem(4 bytes @ 0xE000E004)
T2D88 000:169.300   Data:  02 00 00 00
T2D88 000:169.474 - 0.945ms returns 1 (0x1)
T2D88 000:169.555 JLINK_ReadMemU32(0xE000E004, 0x1 Items)
T2D88 000:169.637   CPU_ReadMem(4 bytes @ 0xE000E004)
T2D88 000:170.362   Data:  02 00 00 00
T2D88 000:170.543 - 0.987ms returns 1 (0x1)
T2D88 000:170.622 JLINK_WriteMemEx(0xE0001000, 0x0000001C Bytes, Flags = 0x02000004)
T2D88 000:170.694   Data:  01 00 00 00 00 00 00 00 00 00 00 00 00 00 00 00 ...
T2D88 000:170.809   CPU_WriteMem(28 bytes @ 0xE0001000)
T2D88 000:171.747 - 1.124ms returns 0x1C
T2D88 000:171.917 JLINK_HasError()
T2D88 000:171.995 JLINK_ReadReg(R15 (PC))
T2D88 000:172.074 - 0.078ms returns 0x08000144
T2D88 000:172.146 JLINK_ReadReg(XPSR)
T2D88 000:172.217 - 0.070ms returns 0x01000000
T2D88 000:176.543 JLINK_ReadMemEx(0xE0001004, 0x4 Bytes, Flags = 0x02000000)
T2D88 000:176.647   Data:  00 00 00 00
T2D88 000:176.753   Debug reg: DWT_CYCCNT
T2D88 000:176.858 - 0.315ms returns 4 (0x4)
T2D88 000:263.119 JLINK_HasError()
T2D88 000:263.274 JLINK_SetResetType(JLINKARM_CM3_RESET_TYPE_NORMAL)
T2D88 000:263.354 - 0.079ms returns JLINKARM_CM3_RESET_TYPE_NORMAL
T2D88 000:263.434 JLINK_Reset()
T2D88 000:263.523   JLINK_GetResetTypeDesc
T2D88 000:263.598   - 0.075ms 
T2D88 000:263.700   Reset type: NORMAL (https://wiki.segger.com/J-Link_Reset_Strategies)
T2D88 000:263.759   CPU_WriteMem(4 bytes @ 0xE000EDF0)
T2D88 000:264.418   CPU_WriteMem(4 bytes @ 0xE000EDFC)
T2D88 000:265.107   Reset: Halt core after reset via DEMCR.VC_CORERESET.
T2D88 000:266.078   Reset: Reset device via AIRCR.SYSRESETREQ.
T2D88 000:266.220   CPU_WriteMem(4 bytes @ 0xE000ED0C)
T2D88 000:321.264   CPU_ReadMem(4 bytes @ 0xE000EDF0)
T2D88 000:322.380   CPU_ReadMem(4 bytes @ 0xE000EDF0)
T2D88 000:323.160   CPU_WriteMem(4 bytes @ 0xE000EDFC)
T2D88 000:330.314   CPU_ReadMem(4 bytes @ 0xE000EDF0)
T2D88 000:334.023   CPU_WriteMem(4 bytes @ 0xE0002000)
T2D88 000:334.809   CPU_ReadMem(4 bytes @ 0xE000EDFC)
T2D88 000:335.593   CPU_ReadMem(4 bytes @ 0xE0001000)
T2D88 000:336.387 - 72.946ms 
T2D88 000:336.601 JLINK_HasError()
T2D88 000:336.743 JLINK_ReadReg(R15 (PC))
T2D88 000:336.817 - 0.072ms returns 0x08000144
T2D88 000:336.884 JLINK_ReadReg(XPSR)
T2D88 000:336.950 - 0.065ms returns 0x01000000
T2D88 000:339.503 JLINK_ReadMemEx(0x08000130, 0x3C Bytes, Flags = 0x02000000)
T2D88 000:339.597   CPU_ReadMem(128 bytes @ 0x08000100)
T2D88 000:340.704    -- Updating C cache (128 bytes @ 0x08000100)
T2D88 000:340.865    -- Read from C cache (60 bytes @ 0x08000130)
T2D88 000:340.967   Data:  DF F8 0C D0 00 F0 6A F8 00 48 00 47 E5 19 00 08 ...
T2D88 000:341.066 - 1.563ms returns 60 (0x3C)
T2D88 000:341.149 JLINK_ReadMemEx(0x08000130, 0x2 Bytes, Flags = 0x02000000)
T2D88 000:341.217    -- Read from C cache (2 bytes @ 0x08000130)
T2D88 000:341.313   Data:  DF F8
T2D88 000:341.412 - 0.264ms returns 2 (0x2)
T2D88 000:341.584 JLINK_ReadMemEx(0x08000132, 0x2 Bytes, Flags = 0x02000000)
T2D88 000:341.652    -- Read from C cache (2 bytes @ 0x08000132)
T2D88 000:341.746   Data:  0C D0
T2D88 000:341.841 - 0.257ms returns 2 (0x2)
T2D88 000:341.911 JLINK_ReadMemEx(0x08000134, 0x3C Bytes, Flags = 0x02000000)
T2D88 000:341.978    -- Read from C cache (60 bytes @ 0x08000134)
T2D88 000:342.079   Data:  00 F0 6A F8 00 48 00 47 E5 19 00 08 80 45 00 20 ...
T2D88 000:342.176 - 0.266ms returns 60 (0x3C)
T2D88 000:342.246 JLINK_ReadMemEx(0x08000134, 0x2 Bytes, Flags = 0x02000000)
T2D88 000:342.311    -- Read from C cache (2 bytes @ 0x08000134)
T2D88 000:342.407   Data:  00 F0
T2D88 000:342.508 - 0.263ms returns 2 (0x2)
T2D88 000:342.576 JLINK_ReadMemEx(0x08000136, 0x2 Bytes, Flags = 0x02000000)
T2D88 000:342.642    -- Read from C cache (2 bytes @ 0x08000136)
T2D88 000:342.738   Data:  6A F8
T2D88 000:342.838 - 0.262ms returns 2 (0x2)
T2D88 000:342.914 JLINK_ReadMemEx(0x08000138, 0x3C Bytes, Flags = 0x02000000)
T2D88 000:342.980    -- Read from C cache (60 bytes @ 0x08000138)
T2D88 000:343.077   Data:  00 48 00 47 E5 19 00 08 80 45 00 20 06 48 80 47 ...
T2D88 000:343.173 - 0.259ms returns 60 (0x3C)
T2D88 000:343.238 JLINK_ReadMemEx(0x08000138, 0x2 Bytes, Flags = 0x02000000)
T2D88 000:343.302    -- Read from C cache (2 bytes @ 0x08000138)
T2D88 000:343.400   Data:  00 48
T2D88 000:343.493 - 0.256ms returns 2 (0x2)
T2D88 000:343.560 JLINK_ReadMemEx(0x0800013A, 0x2 Bytes, Flags = 0x02000000)
T2D88 000:343.630    -- Read from C cache (2 bytes @ 0x0800013A)
T2D88 000:343.733   Data:  00 47
T2D88 000:343.839 - 0.279ms returns 2 (0x2)
T2D88 000:343.910 JLINK_ReadMemEx(0x0800013A, 0x2 Bytes, Flags = 0x02000000)
T2D88 000:343.978    -- Read from C cache (2 bytes @ 0x0800013A)
T2D88 000:344.079   Data:  00 47
T2D88 000:344.182 - 0.272ms returns 2 (0x2)
T2D88 000:344.253 JLINK_ReadMemEx(0x0800013C, 0x3C Bytes, Flags = 0x02000000)
T2D88 000:344.533    -- Read from C cache (60 bytes @ 0x0800013C)
T2D88 000:344.646   Data:  E5 19 00 08 80 45 00 20 06 48 80 47 06 48 00 47 ...
T2D88 000:344.745 - 0.493ms returns 60 (0x3C)
T2D88 000:344.816 JLINK_ReadMemEx(0x0800013C, 0x2 Bytes, Flags = 0x02000000)
T2D88 000:344.889    -- Read from C cache (2 bytes @ 0x0800013C)
T2D88 000:344.994   Data:  E5 19
T2D88 000:345.096 - 0.280ms returns 2 (0x2)
T2D88 000:345.174 JLINK_ReadMemEx(0x08000142, 0x2 Bytes, Flags = 0x02000000)
T2D88 000:345.245    -- Read from C cache (2 bytes @ 0x08000142)
T2D88 000:345.353   Data:  00 20
T2D88 000:345.455 - 0.281ms returns 2 (0x2)
T2D88 000:345.526 JLINK_ReadMemEx(0x08000144, 0x3C Bytes, Flags = 0x02000000)
T2D88 000:345.593    -- Read from C cache (60 bytes @ 0x08000144)
T2D88 000:345.697   Data:  06 48 80 47 06 48 00 47 FE E7 FE E7 FE E7 FE E7 ...
T2D88 000:345.801 - 0.276ms returns 60 (0x3C)
T2D88 000:345.873 JLINK_ReadMemEx(0x08000144, 0x2 Bytes, Flags = 0x02000000)
T2D88 000:345.944    -- Read from C cache (2 bytes @ 0x08000144)
T2D88 000:346.046   Data:  06 48
T2D88 000:346.150 - 0.278ms returns 2 (0x2)
T2D88 000:346.232 JLINK_ReadMemEx(0x08000144, 0x3C Bytes, Flags = 0x02000000)
T2D88 000:346.302    -- Read from C cache (60 bytes @ 0x08000144)
T2D88 000:346.406   Data:  06 48 80 47 06 48 00 47 FE E7 FE E7 FE E7 FE E7 ...
T2D88 000:346.511 - 0.279ms returns 60 (0x3C)
T2D88 000:346.580 JLINK_ReadMemEx(0x08000144, 0x2 Bytes, Flags = 0x02000000)
T2D88 000:346.648    -- Read from C cache (2 bytes @ 0x08000144)
T2D88 000:346.751   Data:  06 48
T2D88 000:346.851 - 0.271ms returns 2 (0x2)
T2D88 000:346.921 JLINK_ReadMemEx(0x08000146, 0x2 Bytes, Flags = 0x02000000)
T2D88 000:346.990    -- Read from C cache (2 bytes @ 0x08000146)
T2D88 000:347.088   Data:  80 47
T2D88 000:347.189 - 0.267ms returns 2 (0x2)
T2D88 000:347.265 JLINK_ReadMemEx(0x08000146, 0x2 Bytes, Flags = 0x02000000)
T2D88 000:347.333    -- Read from C cache (2 bytes @ 0x08000146)
T2D88 000:347.436   Data:  80 47
T2D88 000:347.536 - 0.271ms returns 2 (0x2)
T2D88 000:347.604 JLINK_ReadMemEx(0x08000148, 0x3C Bytes, Flags = 0x02000000)
T2D88 000:347.676   CPU_ReadMem(64 bytes @ 0x08000180)
T2D88 000:348.626    -- Updating C cache (64 bytes @ 0x08000180)
T2D88 000:348.787    -- Read from C cache (60 bytes @ 0x08000148)
T2D88 000:348.890   Data:  06 48 00 47 FE E7 FE E7 FE E7 FE E7 FE E7 FE E7 ...
T2D88 000:348.983 - 1.378ms returns 60 (0x3C)
T2D88 000:349.054 JLINK_ReadMemEx(0x08000148, 0x2 Bytes, Flags = 0x02000000)
T2D88 000:349.122    -- Read from C cache (2 bytes @ 0x08000148)
T2D88 000:349.219   Data:  06 48
T2D88 000:349.318 - 0.264ms returns 2 (0x2)
T2D88 000:349.401 JLINK_ReadMemEx(0x08000148, 0x3C Bytes, Flags = 0x02000000)
T2D88 000:349.467    -- Read from C cache (60 bytes @ 0x08000148)
T2D88 000:349.563   Data:  06 48 00 47 FE E7 FE E7 FE E7 FE E7 FE E7 FE E7 ...
T2D88 000:349.663 - 0.263ms returns 60 (0x3C)
T2D88 000:349.730 JLINK_ReadMemEx(0x08000148, 0x2 Bytes, Flags = 0x02000000)
T2D88 000:349.797    -- Read from C cache (2 bytes @ 0x08000148)
T2D88 000:349.899   Data:  06 48
T2D88 000:350.005 - 0.275ms returns 2 (0x2)
T2D88 000:350.074 JLINK_ReadMemEx(0x0800014A, 0x2 Bytes, Flags = 0x02000000)
T2D88 000:350.145    -- Read from C cache (2 bytes @ 0x0800014A)
T2D88 000:350.250   Data:  00 47
T2D88 000:350.358 - 0.284ms returns 2 (0x2)
T2D88 000:533.957 JLINK_ReadMemEx(0x40004C00, 0x14 Bytes, Flags = 0x02000004)
T2D88 000:534.023   CPU_ReadMem(20 bytes @ 0x40004C00)
T2D88 000:534.666   Data:  C0 00 00 00 00 00 00 00 00 00 00 00 00 00 00 00 ...
T2D88 000:534.740 - 0.783ms returns 20 (0x14)
T2D88 000:534.773 JLINK_ReadMemEx(0x40004C14, 0x4 Bytes, Flags = 0x02000004)
T2D88 000:534.803   CPU_ReadMem(4 bytes @ 0x40004C14)
T2D88 000:535.456   Data:  00 00 00 00
T2D88 000:535.527 - 0.754ms returns 4 (0x4)
T2D88 000:535.558 JLINK_ReadMemEx(0x40004C1C, 0x4 Bytes, Flags = 0x02000004)
T2D88 000:535.589   CPU_ReadMem(4 bytes @ 0x40004C1C)
T2D88 000:536.205   Data:  00 00 00 00
T2D88 000:536.283 - 0.725ms returns 4 (0x4)
T2D88 000:605.696 JLINK_ReadMemEx(0x40013800, 0x14 Bytes, Flags = 0x02000004)
T2D88 000:605.765   CPU_ReadMem(20 bytes @ 0x40013800)
T2D88 000:606.277   Data:  C0 00 00 00 00 00 00 00 00 00 00 00 00 00 00 00 ...
T2D88 000:606.343 - 0.647ms returns 20 (0x14)
T2D88 000:606.380 JLINK_ReadMemEx(0x40013814, 0x4 Bytes, Flags = 0x02000004)
T2D88 000:606.417   CPU_ReadMem(4 bytes @ 0x40013814)
T2D88 000:606.868   Data:  00 00 00 00
T2D88 000:606.911 - 0.531ms returns 4 (0x4)
T2D88 000:606.940 JLINK_ReadMemEx(0x4001381C, 0x4 Bytes, Flags = 0x02000004)
T2D88 000:606.968   CPU_ReadMem(4 bytes @ 0x4001381C)
T2D88 000:607.340   Data:  00 00 00 00
T2D88 000:607.384 - 0.444ms returns 4 (0x4)
T2D88 000:607.413 JLINK_ReadMemEx(0x40013880, 0x8 Bytes, Flags = 0x02000004)
T2D88 000:607.441   CPU_ReadMem(8 bytes @ 0x40013880)
T2D88 000:607.885   Data:  00 00 00 00 00 00 00 00
T2D88 000:607.963 - 0.549ms returns 8 (0x8)
T2D88 000:607.992 JLINK_ReadMemEx(0x40013888, 0x4 Bytes, Flags = 0x02000004)
T2D88 000:608.024   CPU_ReadMem(4 bytes @ 0x40013888)
T2D88 000:608.469   Data:  00 00 00 00
T2D88 000:608.511 - 0.519ms returns 4 (0x4)
T2D88 001:421.871 JLINK_HasError()
T2D88 001:421.945 JLINK_ReadReg(R0)
T2D88 001:422.460 - 0.514ms returns 0x00000000
T2D88 001:422.535 JLINK_ReadReg(R1)
T2D88 001:422.579 - 0.044ms returns 0x00000080
T2D88 001:422.623 JLINK_ReadReg(R2)
T2D88 001:422.665 - 0.041ms returns 0x0000248C
T2D88 001:422.707 JLINK_ReadReg(R3)
T2D88 001:422.749 - 0.042ms returns 0x04C11DB7
T2D88 001:422.792 JLINK_ReadReg(R4)
T2D88 001:422.830 - 0.037ms returns 0x00000000
T2D88 001:422.870 JLINK_ReadReg(R5)
T2D88 001:422.908 - 0.037ms returns 0x00000000
T2D88 001:422.948 JLINK_ReadReg(R6)
T2D88 001:422.997 - 0.049ms returns 0x00000000
T2D88 001:423.044 JLINK_ReadReg(R7)
T2D88 001:423.084 - 0.040ms returns 0x00000000
T2D88 001:423.141 JLINK_ReadReg(R8)
T2D88 001:423.185 - 0.055ms returns 0x00000000
T2D88 001:423.227 JLINK_ReadReg(R9)
T2D88 001:423.268 - 0.041ms returns 0x200001E0
T2D88 001:423.315 JLINK_ReadReg(R10)
T2D88 001:423.358 - 0.043ms returns 0x00000000
T2D88 001:423.400 JLINK_ReadReg(R11)
T2D88 001:423.441 - 0.041ms returns 0x00000000
T2D88 001:423.488 JLINK_ReadReg(R12)
T2D88 001:423.533 - 0.044ms returns 0x00000000
T2D88 001:423.578 JLINK_ReadReg(R13 (SP))
T2D88 001:423.623 - 0.044ms returns 0x20004580
T2D88 001:423.665 JLINK_ReadReg(R14)
T2D88 001:423.706 - 0.040ms returns 0xFFFFFFFF
T2D88 001:423.750 JLINK_ReadReg(R15 (PC))
T2D88 001:423.795 - 0.045ms returns 0x08000144
T2D88 001:423.841 JLINK_ReadReg(XPSR)
T2D88 001:423.883 - 0.041ms returns 0x01000000
T2D88 001:423.924 JLINK_ReadReg(MSP)
T2D88 001:423.963 - 0.038ms returns 0x20004580
T2D88 001:424.002 JLINK_ReadReg(PSP)
T2D88 001:424.044 - 0.042ms returns 0x20001000
T2D88 001:424.086 JLINK_ReadReg(CFBP)
T2D88 001:424.125 - 0.039ms returns 0x00000000
T2D88 001:424.163 JLINK_ReadReg(FPSCR)
T2D88 001:427.979 - 3.815ms returns 0x00000000
T2D88 001:428.044 JLINK_ReadReg(FPS0)
T2D88 001:428.085 - 0.040ms returns 0x98260020
T2D88 001:428.125 JLINK_ReadReg(FPS1)
T2D88 001:428.163 - 0.037ms returns 0x890C1004
T2D88 001:428.200 JLINK_ReadReg(FPS2)
T2D88 001:428.237 - 0.037ms returns 0x2BC2E015
T2D88 001:428.277 JLINK_ReadReg(FPS3)
T2D88 001:428.315 - 0.038ms returns 0x06483000
T2D88 001:428.354 JLINK_ReadReg(FPS4)
T2D88 001:428.394 - 0.039ms returns 0xF9595042
T2D88 001:428.432 JLINK_ReadReg(FPS5)
T2D88 001:428.468 - 0.036ms returns 0x00AA6320
T2D88 001:428.507 JLINK_ReadReg(FPS6)
T2D88 001:428.545 - 0.038ms returns 0x01084810
T2D88 001:428.586 JLINK_ReadReg(FPS7)
T2D88 001:428.627 - 0.041ms returns 0x8250021E
T2D88 001:428.667 JLINK_ReadReg(FPS8)
T2D88 001:428.707 - 0.040ms returns 0x123C01D0
T2D88 001:428.745 JLINK_ReadReg(FPS9)
T2D88 001:428.783 - 0.038ms returns 0x8C8850A0
T2D88 001:428.823 JLINK_ReadReg(FPS10)
T2D88 001:428.860 - 0.036ms returns 0x032B1910
T2D88 001:428.897 JLINK_ReadReg(FPS11)
T2D88 001:428.936 - 0.039ms returns 0x23210026
T2D88 001:428.979 JLINK_ReadReg(FPS12)
T2D88 001:429.019 - 0.040ms returns 0x124027B2
T2D88 001:429.059 JLINK_ReadReg(FPS13)
T2D88 001:429.097 - 0.037ms returns 0x10324A80
T2D88 001:429.135 JLINK_ReadReg(FPS14)
T2D88 001:429.174 - 0.038ms returns 0x80040EB0
T2D88 001:429.217 JLINK_ReadReg(FPS15)
T2D88 001:429.259 - 0.041ms returns 0x1221425C
T2D88 001:429.296 JLINK_ReadReg(FPS16)
T2D88 001:429.333 - 0.037ms returns 0xE8882002
T2D88 001:429.376 JLINK_ReadReg(FPS17)
T2D88 001:429.416 - 0.040ms returns 0x4C089210
T2D88 001:429.460 JLINK_ReadReg(FPS18)
T2D88 001:429.500 - 0.039ms returns 0x02200811
T2D88 001:429.542 JLINK_ReadReg(FPS19)
T2D88 001:429.583 - 0.041ms returns 0x83215110
T2D88 001:429.623 JLINK_ReadReg(FPS20)
T2D88 001:429.664 - 0.040ms returns 0x8C200C0B
T2D88 001:429.712 JLINK_ReadReg(FPS21)
T2D88 001:429.754 - 0.041ms returns 0x50240013
T2D88 001:429.795 JLINK_ReadReg(FPS22)
T2D88 001:429.833 - 0.038ms returns 0x1180C510
T2D88 001:429.872 JLINK_ReadReg(FPS23)
T2D88 001:429.911 - 0.039ms returns 0x4818AA80
T2D88 001:429.954 JLINK_ReadReg(FPS24)
T2D88 001:429.994 - 0.039ms returns 0xB090FC85
T2D88 001:430.032 JLINK_ReadReg(FPS25)
T2D88 001:430.072 - 0.039ms returns 0x0D180F04
T2D88 001:430.112 JLINK_ReadReg(FPS26)
T2D88 001:430.153 - 0.040ms returns 0x52806242
T2D88 001:430.192 JLINK_ReadReg(FPS27)
T2D88 001:430.231 - 0.039ms returns 0x0C320042
T2D88 001:430.275 JLINK_ReadReg(FPS28)
T2D88 001:430.318 - 0.043ms returns 0x9C298CAA
T2D88 001:430.361 JLINK_ReadReg(FPS29)
T2D88 001:430.402 - 0.041ms returns 0x21821004
T2D88 001:430.444 JLINK_ReadReg(FPS30)
T2D88 001:430.484 - 0.039ms returns 0x509D4B08
T2D88 001:430.524 JLINK_ReadReg(FPS31)
T2D88 001:430.564 - 0.040ms returns 0x089C9702
T2D88 001:430.659 JLINK_ReadMemEx(0x08070000, 0x186 Bytes, Flags = 0x02000000)
T2D88 001:430.710   CPU_ReadMem(448 bytes @ 0x08070000)
T2D88 001:433.467    -- Updating C cache (448 bytes @ 0x08070000)
T2D88 001:433.570    -- Read from C cache (390 bytes @ 0x08070000)
T2D88 001:433.642   Data:  FF FF FF FF FF FF FF FF FF FF FF FF FF FF FF FF ...
T2D88 001:433.711 - 3.051ms returns 390 (0x186)
T2D88 001:436.244 JLINK_ReadMemEx(0x08070000, 0x186 Bytes, Flags = 0x02000000)
T2D88 001:436.309    -- Read from C cache (390 bytes @ 0x08070000)
T2D88 001:436.372   Data:  FF FF FF FF FF FF FF FF FF FF FF FF FF FF FF FF ...
T2D88 001:436.428 - 0.184ms returns 390 (0x186)
T2D88 001:436.910 JLINK_ReadMemEx(0x08070000, 0x186 Bytes, Flags = 0x02000000)
T2D88 001:436.979    -- Read from C cache (390 bytes @ 0x08070000)
T2D88 001:437.044   Data:  FF FF FF FF FF FF FF FF FF FF FF FF FF FF FF FF ...
T2D88 001:437.104 - 0.194ms returns 390 (0x186)
T2D88 002:107.259 JLINK_ReadMemEx(0x08000142, 0x2 Bytes, Flags = 0x02000000)
T2D88 002:107.332    -- Read from C cache (2 bytes @ 0x08000142)
T2D88 002:107.385   Data:  00 20
T2D88 002:107.438 - 0.179ms returns 2 (0x2)
T2D88 002:107.476 JLINK_ReadMemEx(0x08000144, 0x3C Bytes, Flags = 0x02000000)
T2D88 002:107.511    -- Read from C cache (60 bytes @ 0x08000144)
T2D88 002:107.563   Data:  06 48 80 47 06 48 00 47 FE E7 FE E7 FE E7 FE E7 ...
T2D88 002:107.615 - 0.139ms returns 60 (0x3C)
T2D88 002:107.650 JLINK_ReadMemEx(0x08000144, 0x2 Bytes, Flags = 0x02000000)
T2D88 002:107.687    -- Read from C cache (2 bytes @ 0x08000144)
T2D88 002:107.739   Data:  06 48
T2D88 002:107.791 - 0.140ms returns 2 (0x2)
T2D88 002:107.838 JLINK_ReadMemEx(0x08000144, 0x3C Bytes, Flags = 0x02000000)
T2D88 002:107.873    -- Read from C cache (60 bytes @ 0x08000144)
T2D88 002:107.925   Data:  06 48 80 47 06 48 00 47 FE E7 FE E7 FE E7 FE E7 ...
T2D88 002:107.976 - 0.138ms returns 60 (0x3C)
T2D88 002:108.011 JLINK_ReadMemEx(0x08000144, 0x2 Bytes, Flags = 0x02000000)
T2D88 002:108.045    -- Read from C cache (2 bytes @ 0x08000144)
T2D88 002:108.096   Data:  06 48
T2D88 002:108.148 - 0.136ms returns 2 (0x2)
T2D88 002:108.182 JLINK_ReadMemEx(0x08000146, 0x2 Bytes, Flags = 0x02000000)
T2D88 002:108.217    -- Read from C cache (2 bytes @ 0x08000146)
T2D88 002:108.267   Data:  80 47
T2D88 002:108.325 - 0.142ms returns 2 (0x2)
T2D88 002:108.363 JLINK_ReadMemEx(0x08000146, 0x2 Bytes, Flags = 0x02000000)
T2D88 002:108.398    -- Read from C cache (2 bytes @ 0x08000146)
T2D88 002:108.450   Data:  80 47
T2D88 002:108.500 - 0.137ms returns 2 (0x2)
T2D88 002:108.536 JLINK_ReadMemEx(0x08000148, 0x3C Bytes, Flags = 0x02000000)
T2D88 002:108.570    -- Read from C cache (60 bytes @ 0x08000148)
T2D88 002:108.623   Data:  06 48 00 47 FE E7 FE E7 FE E7 FE E7 FE E7 FE E7 ...
T2D88 002:108.675 - 0.139ms returns 60 (0x3C)
T2D88 002:108.710 JLINK_ReadMemEx(0x08000148, 0x2 Bytes, Flags = 0x02000000)
T2D88 002:108.744    -- Read from C cache (2 bytes @ 0x08000148)
T2D88 002:108.796   Data:  06 48
T2D88 002:108.846 - 0.136ms returns 2 (0x2)
T2D88 002:108.884 JLINK_ReadMemEx(0x08000148, 0x3C Bytes, Flags = 0x02000000)
T2D88 002:108.919    -- Read from C cache (60 bytes @ 0x08000148)
T2D88 002:108.970   Data:  06 48 00 47 FE E7 FE E7 FE E7 FE E7 FE E7 FE E7 ...
T2D88 002:109.022 - 0.139ms returns 60 (0x3C)
T2D88 002:109.058 JLINK_ReadMemEx(0x08000148, 0x2 Bytes, Flags = 0x02000000)
T2D88 002:109.093    -- Read from C cache (2 bytes @ 0x08000148)
T2D88 002:109.144   Data:  06 48
T2D88 002:109.197 - 0.139ms returns 2 (0x2)
T2D88 002:109.232 JLINK_ReadMemEx(0x0800014A, 0x2 Bytes, Flags = 0x02000000)
T2D88 002:109.267    -- Read from C cache (2 bytes @ 0x0800014A)
T2D88 002:109.317   Data:  00 47
T2D88 002:109.370 - 0.138ms returns 2 (0x2)
T2D88 002:397.470 JLINK_ReadMemEx(0x08070000, 0x186 Bytes, Flags = 0x02000000)
T2D88 002:397.529    -- Read from C cache (390 bytes @ 0x08070000)
T2D88 002:397.576   Data:  FF FF FF FF FF FF FF FF FF FF FF FF FF FF FF FF ...
T2D88 002:397.617 - 0.147ms returns 390 (0x186)
T2D88 002:398.833 JLINK_ReadMemEx(0x08070000, 0x186 Bytes, Flags = 0x02000000)
T2D88 002:398.890    -- Read from C cache (390 bytes @ 0x08070000)
T2D88 002:398.937   Data:  FF FF FF FF FF FF FF FF FF FF FF FF FF FF FF FF ...
T2D88 002:398.980 - 0.146ms returns 390 (0x186)
T0A44 002:413.244 JLINK_ReadMemEx(0x08000144, 0x2 Bytes, Flags = 0x02000000)
T0A44 002:413.298    -- Read from C cache (2 bytes @ 0x08000144)
T0A44 002:413.341   Data:  06 48
T0A44 002:413.382 - 0.138ms returns 2 (0x2)
T0A44 002:413.411 JLINK_HasError()
T0A44 002:413.441 JLINK_SetBPEx(Addr = 0x080019E4, Type = 0xFFFFFFF2)
T0A44 002:413.473 - 0.032ms returns 0x00000001
T0A44 002:413.500 JLINK_HasError()
T0A44 002:413.528 JLINK_HasError()
T0A44 002:413.555 JLINK_Go()
T0A44 002:414.215   CPU_WriteMem(4 bytes @ 0xE0002000)
T0A44 002:414.756   CPU_ReadMem(4 bytes @ 0xE0001000)
T0A44 002:415.230   CPU_WriteMem(4 bytes @ 0xE0002008)
T0A44 002:415.292   CPU_WriteMem(4 bytes @ 0xE000200C)
T0A44 002:415.333   CPU_WriteMem(4 bytes @ 0xE0002010)
T0A44 002:415.374   CPU_WriteMem(4 bytes @ 0xE0002014)
T0A44 002:415.413   CPU_WriteMem(4 bytes @ 0xE0002018)
T0A44 002:415.453   CPU_WriteMem(4 bytes @ 0xE000201C)
T0A44 002:416.952   CPU_WriteMem(4 bytes @ 0xE0001004)
T0A44 002:418.998   Memory map 'after startup completion point' is active
T0A44 002:419.098 - 5.542ms 
T0A44 002:520.067 JLINK_HasError()
T0A44 002:520.132 JLINK_IsHalted()
T0A44 002:522.813 - 2.680ms returns TRUE
T0A44 002:522.884 JLINK_HasError()
T0A44 002:522.917 JLINK_Halt()
T0A44 002:522.950 - 0.032ms returns 0x00
T0A44 002:522.977 JLINK_IsHalted()
T0A44 002:523.003 - 0.026ms returns TRUE
T0A44 002:523.034 JLINK_IsHalted()
T0A44 002:523.061 - 0.027ms returns TRUE
T0A44 002:523.091 JLINK_IsHalted()
T0A44 002:523.119 - 0.028ms returns TRUE
T0A44 002:523.149 JLINK_HasError()
T0A44 002:523.178 JLINK_ReadReg(R15 (PC))
T0A44 002:523.210 - 0.031ms returns 0x080019E4
T0A44 002:523.239 JLINK_ReadReg(XPSR)
T0A44 002:523.270 - 0.031ms returns 0x61000000
T0A44 002:523.303 JLINK_HasError()
T0A44 002:523.337 JLINK_ClrBPEx(BPHandle = 0x00000001)
T0A44 002:523.366 - 0.029ms returns 0x00
T0A44 002:523.396 JLINK_HasError()
T0A44 002:523.430 JLINK_HasError()
T0A44 002:523.461 JLINK_ReadMemU32(0xE000ED30, 0x1 Items)
T0A44 002:523.496   CPU_ReadMem(4 bytes @ 0xE000ED30)
T0A44 002:524.028   Data:  02 00 00 00
T0A44 002:524.088 - 0.627ms returns 1 (0x1)
T0A44 002:524.120 JLINK_ReadMemU32(0xE0001028, 0x1 Items)
T0A44 002:524.154   CPU_ReadMem(4 bytes @ 0xE0001028)
T0A44 002:524.538   Data:  00 00 00 00
T0A44 002:524.605   Debug reg: DWT_FUNC[0]
T0A44 002:524.651 - 0.530ms returns 1 (0x1)
T0A44 002:524.682 JLINK_ReadMemU32(0xE0001038, 0x1 Items)
T0A44 002:524.714   CPU_ReadMem(4 bytes @ 0xE0001038)
T0A44 002:525.045   Data:  00 02 00 00
T0A44 002:525.116   Debug reg: DWT_FUNC[1]
T0A44 002:525.159 - 0.477ms returns 1 (0x1)
T0A44 002:525.192 JLINK_ReadMemU32(0xE0001048, 0x1 Items)
T0A44 002:525.229   CPU_ReadMem(4 bytes @ 0xE0001048)
T0A44 002:525.595   Data:  00 00 00 00
T0A44 002:525.663   Debug reg: DWT_FUNC[2]
T0A44 002:525.710 - 0.518ms returns 1 (0x1)
T0A44 002:525.744 JLINK_ReadMemU32(0xE0001058, 0x1 Items)
T0A44 002:525.779   CPU_ReadMem(4 bytes @ 0xE0001058)
T0A44 002:526.121   Data:  00 00 00 00
T0A44 002:526.188   Debug reg: DWT_FUNC[3]
T0A44 002:526.252 - 0.507ms returns 1 (0x1)
T0A44 002:526.355 JLINK_HasError()
T0A44 002:526.402 JLINK_ReadReg(R0)
T0A44 002:526.453 - 0.050ms returns 0x080019E5
T0A44 002:526.500 JLINK_ReadReg(R1)
T0A44 002:526.547 - 0.047ms returns 0x20004580
T0A44 002:526.590 JLINK_ReadReg(R2)
T0A44 002:526.632 - 0.042ms returns 0x00000000
T0A44 002:526.677 JLINK_ReadReg(R3)
T0A44 002:526.718 - 0.041ms returns 0x08000D75
T0A44 002:526.762 JLINK_ReadReg(R4)
T0A44 002:526.804 - 0.041ms returns 0x08002410
T0A44 002:526.848 JLINK_ReadReg(R5)
T0A44 002:526.890 - 0.041ms returns 0x08002410
T0A44 002:526.932 JLINK_ReadReg(R6)
T0A44 002:526.974 - 0.041ms returns 0x00000000
T0A44 002:527.018 JLINK_ReadReg(R7)
T0A44 002:527.061 - 0.043ms returns 0x00000000
T0A44 002:527.110 JLINK_ReadReg(R8)
T0A44 002:527.159 - 0.049ms returns 0x00000000
T0A44 002:527.207 JLINK_ReadReg(R9)
T0A44 002:527.253 - 0.046ms returns 0x200001E0
T0A44 002:527.299 JLINK_ReadReg(R10)
T0A44 002:527.346 - 0.047ms returns 0x00000000
T0A44 002:527.394 JLINK_ReadReg(R11)
T0A44 002:527.443 - 0.049ms returns 0x00000000
T0A44 002:527.489 JLINK_ReadReg(R12)
T0A44 002:527.541 - 0.052ms returns 0x00000000
T0A44 002:527.581 JLINK_ReadReg(R13 (SP))
T0A44 002:527.624 - 0.042ms returns 0x20004580
T0A44 002:527.671 JLINK_ReadReg(R14)
T0A44 002:527.716 - 0.045ms returns 0x08000229
T0A44 002:527.761 JLINK_ReadReg(R15 (PC))
T0A44 002:527.808 - 0.047ms returns 0x080019E4
T0A44 002:527.855 JLINK_ReadReg(XPSR)
T0A44 002:527.892 - 0.037ms returns 0x61000000
T0A44 002:527.930 JLINK_ReadReg(MSP)
T0A44 002:527.962 - 0.031ms returns 0x20004580
T0A44 002:528.016 JLINK_ReadReg(PSP)
T0A44 002:528.058 - 0.041ms returns 0x20001000
T0A44 002:528.096 JLINK_ReadReg(CFBP)
T0A44 002:528.128 - 0.032ms returns 0x00000000
T0A44 002:528.165 JLINK_ReadReg(FPSCR)
T0A44 002:531.760 - 3.593ms returns 0x00000000
T0A44 002:531.816 JLINK_ReadReg(FPS0)
T0A44 002:531.852 - 0.036ms returns 0x98260020
T0A44 002:531.888 JLINK_ReadReg(FPS1)
T0A44 002:531.920 - 0.031ms returns 0x890C1004
T0A44 002:531.952 JLINK_ReadReg(FPS2)
T0A44 002:531.985 - 0.033ms returns 0x2BC2E015
T0A44 002:532.019 JLINK_ReadReg(FPS3)
T0A44 002:532.054 - 0.035ms returns 0x06483000
T0A44 002:532.088 JLINK_ReadReg(FPS4)
T0A44 002:532.136 - 0.048ms returns 0xF9595042
T0A44 002:532.170 JLINK_ReadReg(FPS5)
T0A44 002:532.203 - 0.032ms returns 0x00AA6320
T0A44 002:532.236 JLINK_ReadReg(FPS6)
T0A44 002:532.268 - 0.031ms returns 0x01084810
T0A44 002:532.302 JLINK_ReadReg(FPS7)
T0A44 002:532.334 - 0.032ms returns 0x8250021E
T0A44 002:532.365 JLINK_ReadReg(FPS8)
T0A44 002:532.400 - 0.034ms returns 0x123C01D0
T0A44 002:532.432 JLINK_ReadReg(FPS9)
T0A44 002:532.465 - 0.033ms returns 0x8C8850A0
T0A44 002:532.500 JLINK_ReadReg(FPS10)
T0A44 002:532.532 - 0.032ms returns 0x032B1910
T0A44 002:532.564 JLINK_ReadReg(FPS11)
T0A44 002:532.598 - 0.033ms returns 0x23210026
T0A44 002:532.630 JLINK_ReadReg(FPS12)
T0A44 002:532.665 - 0.034ms returns 0x124027B2
T0A44 002:532.699 JLINK_ReadReg(FPS13)
T0A44 002:532.734 - 0.035ms returns 0x10324A80
T0A44 002:532.766 JLINK_ReadReg(FPS14)
T0A44 002:532.799 - 0.032ms returns 0x80040EB0
T0A44 002:532.831 JLINK_ReadReg(FPS15)
T0A44 002:532.861 - 0.029ms returns 0x1221425C
T0A44 002:532.894 JLINK_ReadReg(FPS16)
T0A44 002:532.926 - 0.031ms returns 0xE8882002
T0A44 002:532.956 JLINK_ReadReg(FPS17)
T0A44 002:532.986 - 0.030ms returns 0x4C089210
T0A44 002:533.018 JLINK_ReadReg(FPS18)
T0A44 002:533.048 - 0.030ms returns 0x02200811
T0A44 002:533.080 JLINK_ReadReg(FPS19)
T0A44 002:533.111 - 0.031ms returns 0x83215110
T0A44 002:533.144 JLINK_ReadReg(FPS20)
T0A44 002:533.176 - 0.032ms returns 0x8C200C0B
T0A44 002:533.209 JLINK_ReadReg(FPS21)
T0A44 002:533.241 - 0.031ms returns 0x50240013
T0A44 002:533.273 JLINK_ReadReg(FPS22)
T0A44 002:533.306 - 0.032ms returns 0x1180C510
T0A44 002:533.338 JLINK_ReadReg(FPS23)
T0A44 002:533.368 - 0.029ms returns 0x4818AA80
T0A44 002:533.401 JLINK_ReadReg(FPS24)
T0A44 002:533.430 - 0.029ms returns 0xB090FC85
T0A44 002:533.461 JLINK_ReadReg(FPS25)
T0A44 002:533.493 - 0.031ms returns 0x0D180F04
T0A44 002:533.526 JLINK_ReadReg(FPS26)
T0A44 002:533.557 - 0.031ms returns 0x52806242
T0A44 002:533.590 JLINK_ReadReg(FPS27)
T0A44 002:533.622 - 0.031ms returns 0x0C320042
T0A44 002:533.656 JLINK_ReadReg(FPS28)
T0A44 002:533.692 - 0.035ms returns 0x9C298CAA
T0A44 002:533.728 JLINK_ReadReg(FPS29)
T0A44 002:533.760 - 0.032ms returns 0x21821004
T0A44 002:533.794 JLINK_ReadReg(FPS30)
T0A44 002:533.828 - 0.033ms returns 0x509D4B08
T0A44 002:533.867 JLINK_ReadReg(FPS31)
T0A44 002:533.899 - 0.033ms returns 0x089C9702
T2D88 002:534.775 JLINK_ReadMemEx(0x20004578, 0x1 Bytes, Flags = 0x02000000)
T2D88 002:534.833   CPU_ReadMem(64 bytes @ 0x20004540)
T2D88 002:535.437    -- Updating C cache (64 bytes @ 0x20004540)
T2D88 002:535.521    -- Read from C cache (1 bytes @ 0x20004578)
T2D88 002:535.577   Data:  00
T2D88 002:535.635 - 0.859ms returns 1 (0x1)
T2D88 002:535.744 JLINK_ReadMemEx(0x20004574, 0x1 Bytes, Flags = 0x02000000)
T2D88 002:535.789    -- Read from C cache (1 bytes @ 0x20004574)
T2D88 002:535.844   Data:  00
T2D88 002:535.897 - 0.153ms returns 1 (0x1)
T2D88 002:535.986 JLINK_ReadMemEx(0x20004570, 0x2 Bytes, Flags = 0x02000000)
T2D88 002:536.025    -- Read from C cache (2 bytes @ 0x20004570)
T2D88 002:536.080   Data:  00 00
T2D88 002:536.132 - 0.145ms returns 2 (0x2)
T2D88 002:537.536 JLINK_ReadMemEx(0x20004578, 0x1 Bytes, Flags = 0x02000000)
T2D88 002:537.592    -- Read from C cache (1 bytes @ 0x20004578)
T2D88 002:537.650   Data:  00
T2D88 002:537.706 - 0.170ms returns 1 (0x1)
T2D88 002:537.745 JLINK_ReadMemEx(0x20004574, 0x1 Bytes, Flags = 0x02000000)
T2D88 002:537.782    -- Read from C cache (1 bytes @ 0x20004574)
T2D88 002:537.845   Data:  00
T2D88 002:537.897 - 0.152ms returns 1 (0x1)
T2D88 002:537.944 JLINK_ReadMemEx(0x20004570, 0x2 Bytes, Flags = 0x02000000)
T2D88 002:537.979    -- Read from C cache (2 bytes @ 0x20004570)
T2D88 002:538.032   Data:  00 00
T2D88 002:538.085 - 0.142ms returns 2 (0x2)
T2D88 002:538.330 JLINK_ReadMemEx(0x08070000, 0x186 Bytes, Flags = 0x02000000)
T2D88 002:538.370   CPU_ReadMem(448 bytes @ 0x08070000)
T2D88 002:540.372    -- Updating C cache (448 bytes @ 0x08070000)
T2D88 002:540.450    -- Read from C cache (390 bytes @ 0x08070000)
T2D88 002:540.507   Data:  FF FF FF FF FF FF FF FF FF FF FF FF FF FF FF FF ...
T2D88 002:540.560 - 2.230ms returns 390 (0x186)
T2D88 002:540.672 JLINK_ReadMemEx(0x40013800, 0x14 Bytes, Flags = 0x02000004)
T2D88 002:540.713   CPU_ReadMem(20 bytes @ 0x40013800)
T2D88 002:541.144   Data:  C0 00 00 00 00 00 00 00 00 00 00 00 00 00 00 00 ...
T2D88 002:541.201 - 0.529ms returns 20 (0x14)
T2D88 002:541.240 JLINK_ReadMemEx(0x40013814, 0x4 Bytes, Flags = 0x02000004)
T2D88 002:541.280   CPU_ReadMem(4 bytes @ 0x40013814)
T2D88 002:541.667   Data:  00 00 00 00
T2D88 002:541.726 - 0.485ms returns 4 (0x4)
T2D88 002:541.764 JLINK_ReadMemEx(0x4001381C, 0x4 Bytes, Flags = 0x02000004)
T2D88 002:541.801   CPU_ReadMem(4 bytes @ 0x4001381C)
T2D88 002:542.164   Data:  00 00 00 00
T2D88 002:542.219 - 0.454ms returns 4 (0x4)
T2D88 002:542.255 JLINK_ReadMemEx(0x40013880, 0x8 Bytes, Flags = 0x02000004)
T2D88 002:542.292   CPU_ReadMem(8 bytes @ 0x40013880)
T2D88 002:542.673   Data:  00 00 00 00 00 00 00 00
T2D88 002:542.751 - 0.496ms returns 8 (0x8)
T2D88 002:542.790 JLINK_ReadMemEx(0x40013888, 0x4 Bytes, Flags = 0x02000004)
T2D88 002:542.827   CPU_ReadMem(4 bytes @ 0x40013888)
T2D88 002:543.169   Data:  00 00 00 00
T2D88 002:543.222 - 0.432ms returns 4 (0x4)
T2D88 002:543.487 JLINK_ReadMemEx(0x40004C00, 0x14 Bytes, Flags = 0x02000004)
T2D88 002:543.528   CPU_ReadMem(20 bytes @ 0x40004C00)
T2D88 002:543.978   Data:  C0 00 00 00 00 00 00 00 00 00 00 00 00 00 00 00 ...
T2D88 002:544.038 - 0.550ms returns 20 (0x14)
T2D88 002:544.074 JLINK_ReadMemEx(0x40004C14, 0x4 Bytes, Flags = 0x02000004)
T2D88 002:544.109   CPU_ReadMem(4 bytes @ 0x40004C14)
T2D88 002:544.470   Data:  00 00 00 00
T2D88 002:544.527 - 0.453ms returns 4 (0x4)
T2D88 002:544.564 JLINK_ReadMemEx(0x40004C1C, 0x4 Bytes, Flags = 0x02000004)
T2D88 002:544.599   CPU_ReadMem(4 bytes @ 0x40004C1C)
T2D88 002:544.926   Data:  00 00 00 00
T2D88 002:544.978 - 0.413ms returns 4 (0x4)
T2D88 002:551.076 JLINK_ReadMemEx(0x08001900, 0x3C Bytes, Flags = 0x02000000)
T2D88 002:551.142   CPU_ReadMem(64 bytes @ 0x08001900)
T2D88 002:551.725    -- Updating C cache (64 bytes @ 0x08001900)
T2D88 002:551.812    -- Read from C cache (60 bytes @ 0x08001900)
T2D88 002:551.867   Data:  3E B5 2A 4C 2A 49 20 68 88 42 03 D0 29 A0 FF F7 ...
T2D88 002:551.918 - 0.842ms returns 60 (0x3C)
T2D88 002:551.954 JLINK_ReadMemEx(0x08001900, 0x2 Bytes, Flags = 0x02000000)
T2D88 002:551.988    -- Read from C cache (2 bytes @ 0x08001900)
T2D88 002:552.038   Data:  3E B5
T2D88 002:552.084 - 0.130ms returns 2 (0x2)
T2D88 002:552.119 JLINK_ReadMemEx(0x08001902, 0x2 Bytes, Flags = 0x02000000)
T2D88 002:552.151    -- Read from C cache (2 bytes @ 0x08001902)
T2D88 002:552.202   Data:  2A 4C
T2D88 002:552.251 - 0.132ms returns 2 (0x2)
T2D88 002:552.288 JLINK_ReadMemEx(0x08001902, 0x2 Bytes, Flags = 0x02000000)
T2D88 002:552.322    -- Read from C cache (2 bytes @ 0x08001902)
T2D88 002:552.369   Data:  2A 4C
T2D88 002:552.420 - 0.132ms returns 2 (0x2)
T2D88 002:552.454 JLINK_ReadMemEx(0x08001904, 0x3C Bytes, Flags = 0x02000000)
T2D88 002:552.492    -- Read from C cache (60 bytes @ 0x08001904)
T2D88 002:552.544   Data:  2A 49 20 68 88 42 03 D0 29 A0 FF F7 19 FA 3E BD ...
T2D88 002:552.614 - 0.159ms returns 60 (0x3C)
T2D88 002:552.651 JLINK_ReadMemEx(0x08001904, 0x2 Bytes, Flags = 0x02000000)
T2D88 002:552.686    -- Read from C cache (2 bytes @ 0x08001904)
T2D88 002:552.736   Data:  2A 49
T2D88 002:552.792 - 0.140ms returns 2 (0x2)
T2D88 002:552.852 JLINK_ReadMemEx(0x08001904, 0x3C Bytes, Flags = 0x02000000)
T2D88 002:552.884    -- Read from C cache (60 bytes @ 0x08001904)
T2D88 002:552.937   Data:  2A 49 20 68 88 42 03 D0 29 A0 FF F7 19 FA 3E BD ...
T2D88 002:552.995 - 0.143ms returns 60 (0x3C)
T2D88 002:553.030 JLINK_ReadMemEx(0x08001904, 0x2 Bytes, Flags = 0x02000000)
T2D88 002:553.067    -- Read from C cache (2 bytes @ 0x08001904)
T2D88 002:553.118   Data:  2A 49
T2D88 002:553.168 - 0.138ms returns 2 (0x2)
T2D88 002:553.202 JLINK_ReadMemEx(0x08001906, 0x2 Bytes, Flags = 0x02000000)
T2D88 002:553.239    -- Read from C cache (2 bytes @ 0x08001906)
T2D88 002:553.294   Data:  20 68
T2D88 002:553.346 - 0.144ms returns 2 (0x2)
T2D88 002:553.382 JLINK_ReadMemEx(0x08001906, 0x2 Bytes, Flags = 0x02000000)
T2D88 002:553.418    -- Read from C cache (2 bytes @ 0x08001906)
T2D88 002:553.470   Data:  20 68
T2D88 002:553.528 - 0.145ms returns 2 (0x2)
T2D88 002:553.564 JLINK_ReadMemEx(0x08001908, 0x3C Bytes, Flags = 0x02000000)
T2D88 002:553.600   CPU_ReadMem(64 bytes @ 0x08001940)
T2D88 002:554.302    -- Updating C cache (64 bytes @ 0x08001940)
T2D88 002:554.386    -- Read from C cache (60 bytes @ 0x08001908)
T2D88 002:554.438   Data:  88 42 03 D0 29 A0 FF F7 19 FA 3E BD 2A A1 2C 48 ...
T2D88 002:554.488 - 0.922ms returns 60 (0x3C)
T2D88 002:554.530 JLINK_ReadMemEx(0x08001908, 0x2 Bytes, Flags = 0x02000000)
T2D88 002:554.566    -- Read from C cache (2 bytes @ 0x08001908)
T2D88 002:554.615   Data:  88 42
T2D88 002:554.664 - 0.134ms returns 2 (0x2)
T2D88 002:554.700 JLINK_ReadMemEx(0x08001908, 0x3C Bytes, Flags = 0x02000000)
T2D88 002:554.733    -- Read from C cache (60 bytes @ 0x08001908)
T2D88 002:554.781   Data:  88 42 03 D0 29 A0 FF F7 19 FA 3E BD 2A A1 2C 48 ...
T2D88 002:554.829 - 0.129ms returns 60 (0x3C)
T2D88 002:554.861 JLINK_ReadMemEx(0x08001908, 0x2 Bytes, Flags = 0x02000000)
T2D88 002:554.895    -- Read from C cache (2 bytes @ 0x08001908)
T2D88 002:554.948   Data:  88 42
T2D88 002:554.998 - 0.137ms returns 2 (0x2)
T2D88 002:555.033 JLINK_ReadMemEx(0x0800190A, 0x2 Bytes, Flags = 0x02000000)
T2D88 002:555.063    -- Read from C cache (2 bytes @ 0x0800190A)
T2D88 002:555.118   Data:  03 D0
T2D88 002:555.167 - 0.134ms returns 2 (0x2)
T2D88 002:555.200 JLINK_ReadMemEx(0x0800190A, 0x2 Bytes, Flags = 0x02000000)
T2D88 002:555.233    -- Read from C cache (2 bytes @ 0x0800190A)
T2D88 002:555.281   Data:  03 D0
T2D88 002:555.330 - 0.130ms returns 2 (0x2)
T2D88 002:555.362 JLINK_ReadMemEx(0x0800190C, 0x3C Bytes, Flags = 0x02000000)
T2D88 002:555.395    -- Read from C cache (60 bytes @ 0x0800190C)
T2D88 002:555.447   Data:  29 A0 FF F7 19 FA 3E BD 2A A1 2C 48 FE F7 38 FC ...
T2D88 002:555.501 - 0.139ms returns 60 (0x3C)
T2D88 002:555.535 JLINK_ReadMemEx(0x0800190C, 0x2 Bytes, Flags = 0x02000000)
T2D88 002:555.569    -- Read from C cache (2 bytes @ 0x0800190C)
T2D88 002:555.618   Data:  29 A0
T2D88 002:555.668 - 0.133ms returns 2 (0x2)
T2D88 002:555.702 JLINK_ReadMemEx(0x0800190C, 0x3C Bytes, Flags = 0x02000000)
T2D88 002:555.734    -- Read from C cache (60 bytes @ 0x0800190C)
T2D88 002:555.777   Data:  29 A0 FF F7 19 FA 3E BD 2A A1 2C 48 FE F7 38 FC ...
T2D88 002:555.820 - 0.118ms returns 60 (0x3C)
T2D88 002:555.849 JLINK_ReadMemEx(0x0800190C, 0x2 Bytes, Flags = 0x02000000)
T2D88 002:555.881    -- Read from C cache (2 bytes @ 0x0800190C)
T2D88 002:555.929   Data:  29 A0
T2D88 002:555.974 - 0.124ms returns 2 (0x2)
T2D88 002:556.012 JLINK_ReadMemEx(0x0800190E, 0x2 Bytes, Flags = 0x02000000)
T2D88 002:556.048    -- Read from C cache (2 bytes @ 0x0800190E)
T2D88 002:556.094   Data:  FF F7
T2D88 002:556.146 - 0.134ms returns 2 (0x2)
T2D88 002:556.182 JLINK_ReadMemEx(0x0800190E, 0x2 Bytes, Flags = 0x02000000)
T2D88 002:556.216    -- Read from C cache (2 bytes @ 0x0800190E)
T2D88 002:556.266   Data:  FF F7
T2D88 002:556.311 - 0.129ms returns 2 (0x2)
T2D88 002:556.342 JLINK_ReadMemEx(0x08001910, 0x3C Bytes, Flags = 0x02000000)
T2D88 002:556.372    -- Read from C cache (60 bytes @ 0x08001910)
T2D88 002:556.421   Data:  19 FA 3E BD 2A A1 2C 48 FE F7 38 FC 70 B1 4F F4 ...
T2D88 002:556.470 - 0.128ms returns 60 (0x3C)
T2D88 002:556.504 JLINK_ReadMemEx(0x08001910, 0x2 Bytes, Flags = 0x02000000)
T2D88 002:556.538    -- Read from C cache (2 bytes @ 0x08001910)
T2D88 002:556.585   Data:  19 FA
T2D88 002:556.638 - 0.134ms returns 2 (0x2)
T2D88 002:556.672 JLINK_ReadMemEx(0x08001912, 0x2 Bytes, Flags = 0x02000000)
T2D88 002:556.703    -- Read from C cache (2 bytes @ 0x08001912)
T2D88 002:556.748   Data:  3E BD
T2D88 002:556.803 - 0.131ms returns 2 (0x2)
T2D88 002:556.837 JLINK_ReadMemEx(0x08001914, 0x3C Bytes, Flags = 0x02000000)
T2D88 002:556.878    -- Read from C cache (60 bytes @ 0x08001914)
T2D88 002:556.928   Data:  2A A1 2C 48 FE F7 38 FC 70 B1 4F F4 00 61 29 48 ...
T2D88 002:556.977 - 0.140ms returns 60 (0x3C)
T2D88 002:557.013 JLINK_ReadMemEx(0x08001914, 0x2 Bytes, Flags = 0x02000000)
T2D88 002:557.050    -- Read from C cache (2 bytes @ 0x08001914)
T2D88 002:557.100   Data:  2A A1
T2D88 002:557.151 - 0.138ms returns 2 (0x2)
T2D88 002:557.187 JLINK_ReadMemEx(0x08001914, 0x3C Bytes, Flags = 0x02000000)
T2D88 002:557.221    -- Read from C cache (60 bytes @ 0x08001914)
T2D88 002:557.272   Data:  2A A1 2C 48 FE F7 38 FC 70 B1 4F F4 00 61 29 48 ...
T2D88 002:557.317 - 0.130ms returns 60 (0x3C)
T2D88 002:557.350 JLINK_ReadMemEx(0x08001914, 0x2 Bytes, Flags = 0x02000000)
T2D88 002:557.382    -- Read from C cache (2 bytes @ 0x08001914)
T2D88 002:557.426   Data:  2A A1
T2D88 002:557.472 - 0.121ms returns 2 (0x2)
T2D88 002:557.503 JLINK_ReadMemEx(0x08001916, 0x2 Bytes, Flags = 0x02000000)
T2D88 002:557.536    -- Read from C cache (2 bytes @ 0x08001916)
T2D88 002:557.581   Data:  2C 48
T2D88 002:557.627 - 0.124ms returns 2 (0x2)
T2D88 002:557.659 JLINK_ReadMemEx(0x08001916, 0x2 Bytes, Flags = 0x02000000)
T2D88 002:557.693    -- Read from C cache (2 bytes @ 0x08001916)
T2D88 002:557.736   Data:  2C 48
T2D88 002:557.780 - 0.120ms returns 2 (0x2)
T2D88 002:557.809 JLINK_ReadMemEx(0x08001918, 0x3C Bytes, Flags = 0x02000000)
T2D88 002:557.838    -- Read from C cache (60 bytes @ 0x08001918)
T2D88 002:557.883   Data:  FE F7 38 FC 70 B1 4F F4 00 61 29 48 FE F7 C8 FC ...
T2D88 002:557.927 - 0.118ms returns 60 (0x3C)
T2D88 002:557.958 JLINK_ReadMemEx(0x08001918, 0x2 Bytes, Flags = 0x02000000)
T2D88 002:557.989    -- Read from C cache (2 bytes @ 0x08001918)
T2D88 002:558.380   Data:  FE F7
T2D88 002:558.430 - 0.472ms returns 2 (0x2)
T2D88 002:558.468 JLINK_ReadMemEx(0x08001918, 0x3C Bytes, Flags = 0x02000000)
T2D88 002:558.511    -- Read from C cache (60 bytes @ 0x08001918)
T2D88 002:558.561   Data:  FE F7 38 FC 70 B1 4F F4 00 61 29 48 FE F7 C8 FC ...
T2D88 002:558.610 - 0.142ms returns 60 (0x3C)
T2D88 002:558.655 JLINK_ReadMemEx(0x08001918, 0x2 Bytes, Flags = 0x02000000)
T2D88 002:558.688    -- Read from C cache (2 bytes @ 0x08001918)
T2D88 002:558.736   Data:  FE F7
T2D88 002:558.786 - 0.131ms returns 2 (0x2)
T2D88 002:558.820 JLINK_ReadMemEx(0x0800191A, 0x2 Bytes, Flags = 0x02000000)
